
T3F20 000:385 SEGGER J-Link V4.96d Log File (0001ms, 0309ms total)
T3F20 000:385 DLL Compiled: Jan 29 2015 11:45:37 (0001ms, 0309ms total)
T3F20 000:385 Logging started @ 2017-03-13 21:35 (0001ms, 0309ms total)
T3F20 000:386 JLINK_SetWarnOutHandler(...) (0000ms, 0309ms total)
T3F20 000:386 JLINK_OpenEx(...)
Firmware: J-Link ARM V8 compiled Nov 28 2014 13:44:46
Hardware: V8.00
S/N: 304439649
Feature(s): RDI,FlashDL,FlashBP,JFlash,GDBFULL  returns O.K. (0311ms, 0620ms total)
T3F20 000:697 JLINK_SetErrorOutHandler(...) (0000ms, 0620ms total)
T3F20 000:697 JLINK_ExecCommand("ProjectFile = "C:\Users\lhq\Desktop\F405·Ç¿Õ_s_bus\F405·É¿Ø\Project\JLinkSettings.ini"", ...)  returns 0x00 (0000ms, 0620ms total)
T3F20 000:741 JLINK_ExecCommand("Device = STM32F405RG", ...)Device "STM32F405RG" selected.  returns 0x00 (0011ms, 0631ms total)
T3F20 000:752 JLINK_ExecCommand("DisableConnectionTimeout", ...)  returns 0x01 (0000ms, 0631ms total)
T3F20 000:752 JLINK_GetHardwareVersion()  returns 0x13880 (0000ms, 0631ms total)
T3F20 000:752 JLINK_GetDLLVersion()  returns 49604 (0000ms, 0631ms total)
T3F20 000:752 JLINK_GetFirmwareString(...) (0000ms, 0631ms total)
T3F20 000:780 JLINK_GetDLLVersion()  returns 49604 (0000ms, 0631ms total)
T3F20 000:780 JLINK_GetCompileDateTime() (0000ms, 0631ms total)
T3F20 000:787 JLINK_GetFirmwareString(...) (0000ms, 0631ms total)
T3F20 000:793 JLINK_GetHardwareVersion()  returns 0x13880 (0000ms, 0631ms total)
T3F20 000:840 JLINK_TIF_Select(JLINKARM_TIF_SWD)  returns 0x00 (0000ms, 0631ms total)
T3F20 000:840 JLINK_SetSpeed(5000) (0001ms, 0632ms total)
T3F20 000:841 JLINK_GetId() >0x108 TIF>Found SWD-DP with ID 0x2BA01477 >0x0D TIF> >0x28 TIF> >0x0D TIF> >0x28 TIF> >0x0D TIF> >0x21 TIF> >0x0D TIF> >0x28 TIF> >0x0D TIF> >0x28 TIF> >0x0D TIF> >0x28 TIF> >0x0D TIF> >0x21 TIF> >0x0D TIF> >0x21 TIF> >0x0D TIF> >0x28 TIF> >0x0D TIF> >0x21 TIF> >0x0D TIF> >0x21 TIF> >0x0D TIF> >0x28 TIF> >0x0D TIF> >0x28 TIF> >0x0D TIF> >0x28 TIF> >0x0D TIF> >0x21 TIF> >0x0D TIF> >0x21 TIF> >0x0D TIF> >0x28 TIF> >0x0D TIF> >0x28 TIF> >0x108 TIF>Found SWD-DP with ID 0x2BA01477
 >0x0D TIF> >0x21 TIF> >0x0D TIF> >0x28 TIF> >0x0D TIF> >0x28 TIF> >0x0D TIF> >0x21 TIF> >0x0D TIF> >0x28 TIF> >0x0D TIF> >0x21 TIF> >0x0D TIF> >0x21 TIF> >0x0D TIF> >0x21 TIF> >0x0D TIF> >0x21 TIF> >0x0D TIF> >0x28 TIF> >0x0D TIF> >0x28 TIF> >0x0D TIF> >0x21 TIF> >0x0D TIF> >0x28 TIF> >0x0D TIF> >0x28 TIF> >0x0D TIF> >0x28 TIF> >0x0D TIF> >0x21 TIF> >0x0D TIF> >0x21 TIF> >0x0D TIF> >0x28 TIF> >0x0D TIF> >0x21 TIF> >0x0D TIF> >0x21 TIF>Found Cortex-M4 r0p1, Little endian.
 -- CPU_WriteMem(4 bytes @ 0xE0002000) -- CPU_ReadMem(4 bytes @ 0xE000EDF0) -- CPU_WriteMem(4 bytes @ 0xE000EDF0) -- CPU_ReadMem(4 bytes @ 0xE0002000)FPUnit: 6 code (BP) slots and 2 literal slots -- CPU_ReadMem(4 bytes @ 0xE000EDFC) -- CPU_WriteMem(4 bytes @ 0xE000EDFC) -- CPU_ReadMem(4 bytes @ 0xE0001000) -- CPU_WriteMem(4 bytes @ 0xE0001000) -- CPU_ReadMem(4 bytes @ 0xE000ED88) -- CPU_WriteMem(4 bytes @ 0xE000ED88) -- CPU_ReadMem(4 bytes @ 0xE000ED88) -- CPU_WriteMem(4 bytes @ 0xE000ED88)
 -- CPU_ReadMem(4 bytes @ 0xE00FF010)TPIU fitted. -- CPU_ReadMem(4 bytes @ 0xE00FF014)ETM fitted. -- CPU_ReadMem(4 bytes @ 0xE00FF018) >0x0D TIF> >0x21 TIF>  returns 0x2BA01477 (0083ms, 0715ms total)
T3F20 000:924 JLINK_GetDLLVersion()  returns 49604 (0000ms, 0715ms total)
T3F20 000:924 JLINK_CORE_GetFound()  returns 0xE0000FF (0000ms, 0715ms total)
T3F20 000:924 JLINK_GetDebugInfo(0x100) -- Value=0xE00FF003  returns 0x00 (0000ms, 0715ms total)
T3F20 000:930 JLINK_ReadMem (0xE00FF000, 0x0020 Bytes, ...) -- CPU is running -- CPU_ReadMem(32 bytes @ 0xE00FF000) - Data: 03 F0 F0 FF 03 20 F0 FF 03 30 F0 FF 03 10 F0 FF ...  returns 0x00 (0001ms, 0716ms total)
T3F20 000:931 JLINK_ReadMem (0xE000EFF0, 0x0010 Bytes, ...) -- CPU is running -- CPU_ReadMem(16 bytes @ 0xE000EFF0) - Data: 0D 00 00 00 E0 00 00 00 05 00 00 00 B1 00 00 00  returns 0x00 (0001ms, 0717ms total)
T3F20 000:932 JLINK_ReadMem (0xE000EFD0, 0x0020 Bytes, ...) -- CPU is running -- CPU_ReadMem(32 bytes @ 0xE000EFD0) - Data: 04 00 00 00 00 00 00 00 00 00 00 00 00 00 00 00 ...  returns 0x00 (0000ms, 0717ms total)
T3F20 000:932 JLINK_ReadMem (0xE0001FF0, 0x0010 Bytes, ...) -- CPU is running -- CPU_ReadMem(16 bytes @ 0xE0001FF0) - Data: 0D 00 00 00 E0 00 00 00 05 00 00 00 B1 00 00 00  returns 0x00 (0001ms, 0718ms total)
T3F20 000:933 JLINK_ReadMem (0xE0001FD0, 0x0020 Bytes, ...) -- CPU is running -- CPU_ReadMem(32 bytes @ 0xE0001FD0) - Data: 04 00 00 00 00 00 00 00 00 00 00 00 00 00 00 00 ...  returns 0x00 (0000ms, 0718ms total)
T3F20 000:933 JLINK_ReadMem (0xE0002FF0, 0x0010 Bytes, ...) -- CPU is running -- CPU_ReadMem(16 bytes @ 0xE0002FF0) - Data: 0D 00 00 00 E0 00 00 00 05 00 00 00 B1 00 00 00  returns 0x00 (0001ms, 0719ms total)
T3F20 000:934 JLINK_ReadMem (0xE0002FD0, 0x0020 Bytes, ...) -- CPU is running -- CPU_ReadMem(32 bytes @ 0xE0002FD0) - Data: 04 00 00 00 00 00 00 00 00 00 00 00 00 00 00 00 ...  returns 0x00 (0000ms, 0719ms total)
T3F20 000:934 JLINK_ReadMem (0xE0000FF0, 0x0010 Bytes, ...) -- CPU is running -- CPU_ReadMem(16 bytes @ 0xE0000FF0) - Data: 0D 00 00 00 E0 00 00 00 05 00 00 00 B1 00 00 00  returns 0x00 (0001ms, 0720ms total)
T3F20 000:935 JLINK_ReadMem (0xE0000FD0, 0x0020 Bytes, ...) -- CPU is running -- CPU_ReadMem(32 bytes @ 0xE0000FD0) - Data: 04 00 00 00 00 00 00 00 00 00 00 00 00 00 00 00 ...  returns 0x00 (0000ms, 0720ms total)
T3F20 000:935 JLINK_ReadMem (0xE0040FF0, 0x0010 Bytes, ...) -- CPU is running -- CPU_ReadMem(16 bytes @ 0xE0040FF0) - Data: 0D 00 00 00 90 00 00 00 05 00 00 00 B1 00 00 00  returns 0x00 (0001ms, 0721ms total)
T3F20 000:936 JLINK_ReadMem (0xE0040FD0, 0x0020 Bytes, ...) -- CPU is running -- CPU_ReadMem(32 bytes @ 0xE0040FD0) - Data: 04 00 00 00 00 00 00 00 00 00 00 00 00 00 00 00 ...  returns 0x00 (0000ms, 0721ms total)
T3F20 000:936 JLINK_ReadMem (0xE0041FF0, 0x0010 Bytes, ...) -- CPU is running -- CPU_ReadMem(16 bytes @ 0xE0041FF0) - Data: 0D 00 00 00 90 00 00 00 05 00 00 00 B1 00 00 00  returns 0x00 (0001ms, 0722ms total)
T3F20 000:937 JLINK_ReadMem (0xE0041FD0, 0x0020 Bytes, ...) -- CPU is running -- CPU_ReadMem(32 bytes @ 0xE0041FD0) - Data: 04 00 00 00 00 00 00 00 00 00 00 00 00 00 00 00 ...  returns 0x00 (0000ms, 0722ms total)
T3F20 000:937 JLINK_ReadMemU32(0xE000EF40, 0x0001 Items, ...) -- CPU is running -- CPU_ReadMem(4 bytes @ 0xE000EF40) - Data: 21 00 11 10  returns 0x01 (0001ms, 0723ms total)
T3F20 000:938 JLINK_ReadMemU32(0xE000EF44, 0x0001 Items, ...) -- CPU is running -- CPU_ReadMem(4 bytes @ 0xE000EF44) - Data: 11 00 00 11  returns 0x01 (0000ms, 0723ms total)
T3F20 000:938 JLINK_ReadMemU32(0xE000ED00, 0x0001 Items, ...) -- CPU is running -- CPU_ReadMem(4 bytes @ 0xE000ED00) - Data: 41 C2 0F 41  returns 0x01 (0001ms, 0724ms total)
T3F20 000:939 JLINK_SetResetType(JLINKARM_RESET_TYPE_NORMAL)  returns JLINKARM_RESET_TYPE_NORMAL (0000ms, 0724ms total)
T3F20 000:939 JLINK_Reset() -- CPU is running -- CPU_WriteMem(4 bytes @ 0xE000EDF0) -- CPU is running -- CPU_WriteMem(4 bytes @ 0xE000EDFC) >0x35 TIF> -- CPU is running -- CPU_WriteMem(4 bytes @ 0xE000ED0C) -- CPU is running -- CPU_ReadMem(4 bytes @ 0xE000EDF0) -- CPU is running -- CPU_ReadMem(4 bytes @ 0xE000EDF0) -- CPU is running -- CPU_WriteMem(4 bytes @ 0xE000EDF0) -- CPU is running -- CPU_WriteMem(4 bytes @ 0xE000EDFC) -- CPU is running -- CPU_ReadMem(4 bytes @ 0xE000EDF0)
 -- CPU_WriteMem(4 bytes @ 0xE0002000) -- CPU_ReadMem(4 bytes @ 0xE000EDFC) -- CPU_ReadMem(4 bytes @ 0xE0001000) (0015ms, 0739ms total)
T3F20 000:954 JLINK_Halt()  returns 0x00 (0000ms, 0739ms total)
T3F20 000:954 JLINK_IsHalted()  returns TRUE (0000ms, 0739ms total)
T3F20 000:954 JLINK_ReadMemU32(0xE000EDF0, 0x0001 Items, ...) -- CPU_ReadMem(4 bytes @ 0xE000EDF0) - Data: 03 00 03 00  returns 0x01 (0001ms, 0740ms total)
T3F20 000:955 JLINK_WriteU32(0xE000EDF0, 0xA05F0003) -- CPU_WriteMem(4 bytes @ 0xE000EDF0)  returns 0x00 (0000ms, 0740ms total)
T3F20 000:955 JLINK_WriteU32(0xE000EDFC, 0x01000000) -- CPU_WriteMem(4 bytes @ 0xE000EDFC)  returns 0x00 (0000ms, 0740ms total)
T3F20 000:985 JLINK_GetHWStatus(...)  returns 0x00 (0001ms, 0741ms total)
T3F20 001:001 JLINK_GetNumBPUnits(Type = 0xFFFFFF00)  returns 0x06 (0001ms, 0742ms total)
T3F20 001:002 JLINK_GetNumBPUnits(Type = 0xF0)  returns 0x2000 (0000ms, 0742ms total)
T3F20 001:002 JLINK_GetNumWPUnits()  returns 0x04 (0000ms, 0742ms total)
T3F20 001:027 JLINK_GetSpeed()  returns 0xFA0 (0000ms, 0742ms total)
T3F20 001:038 JLINK_ReadMemU32(0xE000E004, 0x0001 Items, ...) -- CPU_ReadMem(4 bytes @ 0xE000E004) - Data: 02 00 00 00  returns 0x01 (0001ms, 0743ms total)
T3F20 001:039 JLINK_ReadMemU32(0xE000E004, 0x0001 Items, ...) -- CPU_ReadMem(4 bytes @ 0xE000E004) - Data: 02 00 00 00  returns 0x01 (0000ms, 0743ms total)
T3F20 001:039 JLINK_WriteMem(0xE0001000, 0x001C Bytes, ...) - Data: 01 00 00 00 00 00 00 00 00 00 00 00 00 00 00 00 ... -- CPU_WriteMem(28 bytes @ 0xE0001000)  returns 0x1C (0001ms, 0744ms total)
T3F20 001:040 JLINK_ReadMem (0xE0001000, 0x001C Bytes, ...) -- CPU_ReadMem(28 bytes @ 0xE0001000) - Data: 01 00 00 40 00 00 00 00 00 00 00 00 00 00 00 00 ...  returns 0x00 (0001ms, 0745ms total)
T3F20 001:041 JLINK_Halt()  returns 0x00 (0000ms, 0745ms total)
T3F20 001:041 JLINK_IsHalted()  returns TRUE (0000ms, 0745ms total)
T3F20 001:044 JLINK_WriteMem(0x20000000, 0x0180 Bytes, ...) - Data: 00 BE 0A E0 0D 78 2D 06 68 40 08 24 40 00 00 D3 ... -- CPU_WriteMem(384 bytes @ 0x20000000)  returns 0x180 (0004ms, 0749ms total)
T3F20 001:048 JLINK_WriteReg(R0, 0x08000000)  returns 0x00 (0000ms, 0749ms total)
T3F20 001:048 JLINK_WriteReg(R1, 0x007A1200)  returns 0x00 (0000ms, 0749ms total)
T3F20 001:048 JLINK_WriteReg(R2, 0x00000001)  returns 0x00 (0000ms, 0749ms total)
T3F20 001:048 JLINK_WriteReg(R3, 0x00000000)  returns 0x00 (0000ms, 0749ms total)
T3F20 001:048 JLINK_WriteReg(R4, 0x00000000)  returns 0x00 (0000ms, 0749ms total)
T3F20 001:048 JLINK_WriteReg(R5, 0x00000000)  returns 0x00 (0000ms, 0749ms total)
T3F20 001:048 JLINK_WriteReg(R6, 0x00000000)  returns 0x00 (0000ms, 0749ms total)
T3F20 001:048 JLINK_WriteReg(R7, 0x00000000)  returns 0x00 (0000ms, 0749ms total)
T3F20 001:048 JLINK_WriteReg(R8, 0x00000000)  returns 0x00 (0000ms, 0749ms total)
T3F20 001:048 JLINK_WriteReg(R9, 0x2000017C)  returns 0x00 (0000ms, 0749ms total)
T3F20 001:048 JLINK_WriteReg(R10, 0x00000000)  returns 0x00 (0000ms, 0749ms total)
T3F20 001:048 JLINK_WriteReg(R11, 0x00000000)  returns 0x00 (0000ms, 0749ms total)
T3F20 001:048 JLINK_WriteReg(R12, 0x00000000)  returns 0x00 (0000ms, 0749ms total)
T3F20 001:048 JLINK_WriteReg(R13 (SP), 0x20000800)  returns 0x00 (0000ms, 0749ms total)
T3F20 001:048 JLINK_WriteReg(R14, 0x20000001)  returns 0x00 (0000ms, 0749ms total)
T3F20 001:048 JLINK_WriteReg(R15 (PC), 0x20000054)  returns 0x00 (0000ms, 0749ms total)
T3F20 001:048 JLINK_WriteReg(XPSR, 0x01000000)  returns 0x00 (0000ms, 0749ms total)
T3F20 001:048 JLINK_WriteReg(MSP, 0x20000800)  returns 0x00 (0000ms, 0749ms total)
T3F20 001:048 JLINK_WriteReg(PSP, 0x20000800)  returns 0x00 (0000ms, 0749ms total)
T3F20 001:048 JLINK_WriteReg(CFBP, 0x00000000)  returns 0x00 (0000ms, 0749ms total)
T3F20 001:048 JLINK_SetBPEx(Addr = 0x20000000, Type = 0xFFFFFFF2) -- CPU_ReadMem(2 bytes @ 0x20000000)  returns 0x00000001 (0001ms, 0750ms total)
T3F20 001:049 JLINK_Go() -- CPU_WriteMem(2 bytes @ 0x20000000) -- CPU_WriteMem(4 bytes @ 0xE0002008) -- CPU_WriteMem(4 bytes @ 0xE000200C) -- CPU_WriteMem(4 bytes @ 0xE0002010) -- CPU_WriteMem(4 bytes @ 0xE0002014) -- CPU_WriteMem(4 bytes @ 0xE0002018) -- CPU_WriteMem(4 bytes @ 0xE000201C) -- CPU_WriteMem(4 bytes @ 0xE0001004) (0003ms, 0753ms total)
T3F20 001:053 JLINK_IsHalted() -- CPU_ReadMem(2 bytes @ 0x20000000)  returns TRUE (0002ms, 0756ms total)
T3F20 001:055 JLINK_ReadReg(R15 (PC))  returns 0x20000000 (0000ms, 0754ms total)
T3F20 001:055 JLINK_ClrBPEx(BPHandle = 0x00000001)  returns 0x00 (0000ms, 0754ms total)
T3F20 001:055 JLINK_ReadReg(R0)  returns 0x00000000 (0000ms, 0754ms total)
T3F20 001:055 JLINK_WriteReg(R0, 0x08000000)  returns 0x00 (0000ms, 0754ms total)
T3F20 001:055 JLINK_WriteReg(R1, 0x00004000)  returns 0x00 (0000ms, 0754ms total)
T3F20 001:055 JLINK_WriteReg(R2, 0x000000FF)  returns 0x00 (0000ms, 0754ms total)
T3F20 001:055 JLINK_WriteReg(R3, 0x00000000)  returns 0x00 (0000ms, 0754ms total)
T3F20 001:055 JLINK_WriteReg(R4, 0x00000000)  returns 0x00 (0000ms, 0754ms total)
T3F20 001:055 JLINK_WriteReg(R5, 0x00000000)  returns 0x00 (0000ms, 0754ms total)
T3F20 001:055 JLINK_WriteReg(R6, 0x00000000)  returns 0x00 (0000ms, 0754ms total)
T3F20 001:055 JLINK_WriteReg(R7, 0x00000000)  returns 0x00 (0000ms, 0754ms total)
T3F20 001:055 JLINK_WriteReg(R8, 0x00000000)  returns 0x00 (0000ms, 0754ms total)
T3F20 001:055 JLINK_WriteReg(R9, 0x2000017C)  returns 0x00 (0000ms, 0754ms total)
T3F20 001:055 JLINK_WriteReg(R10, 0x00000000)  returns 0x00 (0000ms, 0754ms total)
T3F20 001:055 JLINK_WriteReg(R11, 0x00000000)  returns 0x00 (0000ms, 0754ms total)
T3F20 001:055 JLINK_WriteReg(R12, 0x00000000)  returns 0x00 (0000ms, 0754ms total)
T3F20 001:055 JLINK_WriteReg(R13 (SP), 0x20000800)  returns 0x00 (0000ms, 0754ms total)
T3F20 001:055 JLINK_WriteReg(R14, 0x20000001)  returns 0x00 (0000ms, 0754ms total)
T3F20 001:055 JLINK_WriteReg(R15 (PC), 0x20000020)  returns 0x00 (0000ms, 0754ms total)
T3F20 001:055 JLINK_WriteReg(XPSR, 0x01000000)  returns 0x00 (0000ms, 0754ms total)
T3F20 001:055 JLINK_WriteReg(MSP, 0x20000800)  returns 0x00 (0000ms, 0754ms total)
T3F20 001:055 JLINK_WriteReg(PSP, 0x20000800)  returns 0x00 (0000ms, 0754ms total)
T3F20 001:055 JLINK_WriteReg(CFBP, 0x00000000)  returns 0x00 (0001ms, 0755ms total)
T3F20 001:056 JLINK_SetBPEx(Addr = 0x20000000, Type = 0xFFFFFFF2)  returns 0x00000002 (0000ms, 0755ms total)
T3F20 001:056 JLINK_Go() (0001ms, 0756ms total)
T3F20 001:057 JLINK_IsHalted() -- CPU_ReadMem(2 bytes @ 0x20000000)  returns TRUE (0002ms, 0758ms total)
T3F20 001:059 JLINK_ReadReg(R15 (PC))  returns 0x20000000 (0000ms, 0756ms total)
T3F20 001:059 JLINK_ClrBPEx(BPHandle = 0x00000002)  returns 0x00 (0000ms, 0756ms total)
T3F20 001:059 JLINK_ReadReg(R0)  returns 0x00000001 (0000ms, 0756ms total)
T3F20 001:059 JLINK_WriteReg(R0, 0x08000000)  returns 0x00 (0000ms, 0756ms total)
T3F20 001:059 JLINK_WriteReg(R1, 0x00004000)  returns 0x00 (0000ms, 0756ms total)
T3F20 001:059 JLINK_WriteReg(R2, 0x000000FF)  returns 0x00 (0000ms, 0756ms total)
T3F20 001:059 JLINK_WriteReg(R3, 0x00000000)  returns 0x00 (0000ms, 0756ms total)
T3F20 001:059 JLINK_WriteReg(R4, 0x00000000)  returns 0x00 (0000ms, 0756ms total)
T3F20 001:059 JLINK_WriteReg(R5, 0x00000000)  returns 0x00 (0000ms, 0756ms total)
T3F20 001:059 JLINK_WriteReg(R6, 0x00000000)  returns 0x00 (0000ms, 0756ms total)
T3F20 001:059 JLINK_WriteReg(R7, 0x00000000)  returns 0x00 (0000ms, 0756ms total)
T3F20 001:059 JLINK_WriteReg(R8, 0x00000000)  returns 0x00 (0000ms, 0756ms total)
T3F20 001:059 JLINK_WriteReg(R9, 0x2000017C)  returns 0x00 (0000ms, 0756ms total)
T3F20 001:059 JLINK_WriteReg(R10, 0x00000000)  returns 0x00 (0000ms, 0756ms total)
T3F20 001:059 JLINK_WriteReg(R11, 0x00000000)  returns 0x00 (0000ms, 0756ms total)
T3F20 001:059 JLINK_WriteReg(R12, 0x00000000)  returns 0x00 (0000ms, 0756ms total)
T3F20 001:059 JLINK_WriteReg(R13 (SP), 0x20000800)  returns 0x00 (0000ms, 0756ms total)
T3F20 001:059 JLINK_WriteReg(R14, 0x20000001)  returns 0x00 (0000ms, 0756ms total)
T3F20 001:059 JLINK_WriteReg(R15 (PC), 0x200000BC)  returns 0x00 (0000ms, 0756ms total)
T3F20 001:059 JLINK_WriteReg(XPSR, 0x01000000)  returns 0x00 (0000ms, 0756ms total)
T3F20 001:059 JLINK_WriteReg(MSP, 0x20000800)  returns 0x00 (0000ms, 0756ms total)
T3F20 001:059 JLINK_WriteReg(PSP, 0x20000800)  returns 0x00 (0000ms, 0756ms total)
T3F20 001:059 JLINK_WriteReg(CFBP, 0x00000000)  returns 0x00 (0000ms, 0756ms total)
T3F20 001:059 JLINK_SetBPEx(Addr = 0x20000000, Type = 0xFFFFFFF2)  returns 0x00000003 (0000ms, 0756ms total)
T3F20 001:059 JLINK_Go() (0002ms, 0758ms total)
T3F20 001:061 JLINK_IsHalted()  returns FALSE (0000ms, 0758ms total)
T3F20 001:225 JLINK_IsHalted()  returns FALSE (0000ms, 0758ms total)
T3F20 001:318 JLINK_IsHalted()  returns FALSE (0000ms, 0758ms total)
T3F20 001:420 JLINK_IsHalted() -- CPU_ReadMem(2 bytes @ 0x20000000)  returns TRUE (0002ms, 0760ms total)
T3F20 001:422 JLINK_ReadReg(R15 (PC))  returns 0x20000000 (0000ms, 0758ms total)
T3F20 001:422 JLINK_ClrBPEx(BPHandle = 0x00000003)  returns 0x00 (0000ms, 0758ms total)
T3F20 001:422 JLINK_ReadReg(R0)  returns 0x00000000 (0000ms, 0758ms total)
T3F20 001:422 JLINK_WriteReg(R0, 0x08004000)  returns 0x00 (0000ms, 0758ms total)
T3F20 001:422 JLINK_WriteReg(R1, 0x00004000)  returns 0x00 (0000ms, 0758ms total)
T3F20 001:422 JLINK_WriteReg(R2, 0x000000FF)  returns 0x00 (0000ms, 0758ms total)
T3F20 001:422 JLINK_WriteReg(R3, 0x00000000)  returns 0x00 (0000ms, 0758ms total)
T3F20 001:422 JLINK_WriteReg(R4, 0x00000000)  returns 0x00 (0000ms, 0758ms total)
T3F20 001:422 JLINK_WriteReg(R5, 0x00000000)  returns 0x00 (0000ms, 0758ms total)
T3F20 001:422 JLINK_WriteReg(R6, 0x00000000)  returns 0x00 (0000ms, 0758ms total)
T3F20 001:422 JLINK_WriteReg(R7, 0x00000000)  returns 0x00 (0000ms, 0758ms total)
T3F20 001:422 JLINK_WriteReg(R8, 0x00000000)  returns 0x00 (0000ms, 0758ms total)
T3F20 001:422 JLINK_WriteReg(R9, 0x2000017C)  returns 0x00 (0000ms, 0758ms total)
T3F20 001:422 JLINK_WriteReg(R10, 0x00000000)  returns 0x00 (0000ms, 0758ms total)
T3F20 001:422 JLINK_WriteReg(R11, 0x00000000)  returns 0x00 (0000ms, 0758ms total)
T3F20 001:422 JLINK_WriteReg(R12, 0x00000000)  returns 0x00 (0000ms, 0758ms total)
T3F20 001:422 JLINK_WriteReg(R13 (SP), 0x20000800)  returns 0x00 (0000ms, 0758ms total)
T3F20 001:422 JLINK_WriteReg(R14, 0x20000001)  returns 0x00 (0000ms, 0758ms total)
T3F20 001:422 JLINK_WriteReg(R15 (PC), 0x20000020)  returns 0x00 (0000ms, 0758ms total)
T3F20 001:422 JLINK_WriteReg(XPSR, 0x01000000)  returns 0x00 (0000ms, 0758ms total)
T3F20 001:422 JLINK_WriteReg(MSP, 0x20000800)  returns 0x00 (0000ms, 0758ms total)
T3F20 001:422 JLINK_WriteReg(PSP, 0x20000800)  returns 0x00 (0000ms, 0758ms total)
T3F20 001:422 JLINK_WriteReg(CFBP, 0x00000000)  returns 0x00 (0000ms, 0758ms total)
T3F20 001:422 JLINK_SetBPEx(Addr = 0x20000000, Type = 0xFFFFFFF2)  returns 0x00000004 (0000ms, 0758ms total)
T3F20 001:422 JLINK_Go() (0002ms, 0760ms total)
T3F20 001:424 JLINK_IsHalted() -- CPU_ReadMem(2 bytes @ 0x20000000)  returns TRUE (0003ms, 0763ms total)
T3F20 001:427 JLINK_ReadReg(R15 (PC))  returns 0x20000000 (0000ms, 0760ms total)
T3F20 001:427 JLINK_ClrBPEx(BPHandle = 0x00000004)  returns 0x00 (0000ms, 0760ms total)
T3F20 001:427 JLINK_ReadReg(R0)  returns 0x00000001 (0000ms, 0760ms total)
T3F20 001:427 JLINK_WriteReg(R0, 0x08004000)  returns 0x00 (0000ms, 0760ms total)
T3F20 001:427 JLINK_WriteReg(R1, 0x00004000)  returns 0x00 (0000ms, 0760ms total)
T3F20 001:427 JLINK_WriteReg(R2, 0x000000FF)  returns 0x00 (0000ms, 0760ms total)
T3F20 001:427 JLINK_WriteReg(R3, 0x00000000)  returns 0x00 (0000ms, 0760ms total)
T3F20 001:427 JLINK_WriteReg(R4, 0x00000000)  returns 0x00 (0000ms, 0760ms total)
T3F20 001:427 JLINK_WriteReg(R5, 0x00000000)  returns 0x00 (0000ms, 0760ms total)
T3F20 001:427 JLINK_WriteReg(R6, 0x00000000)  returns 0x00 (0000ms, 0760ms total)
T3F20 001:427 JLINK_WriteReg(R7, 0x00000000)  returns 0x00 (0000ms, 0760ms total)
T3F20 001:427 JLINK_WriteReg(R8, 0x00000000)  returns 0x00 (0000ms, 0760ms total)
T3F20 001:427 JLINK_WriteReg(R9, 0x2000017C)  returns 0x00 (0000ms, 0760ms total)
T3F20 001:427 JLINK_WriteReg(R10, 0x00000000)  returns 0x00 (0000ms, 0760ms total)
T3F20 001:427 JLINK_WriteReg(R11, 0x00000000)  returns 0x00 (0000ms, 0760ms total)
T3F20 001:427 JLINK_WriteReg(R12, 0x00000000)  returns 0x00 (0000ms, 0760ms total)
T3F20 001:427 JLINK_WriteReg(R13 (SP), 0x20000800)  returns 0x00 (0000ms, 0760ms total)
T3F20 001:427 JLINK_WriteReg(R14, 0x20000001)  returns 0x00 (0000ms, 0760ms total)
T3F20 001:427 JLINK_WriteReg(R15 (PC), 0x200000BC)  returns 0x00 (0000ms, 0760ms total)
T3F20 001:427 JLINK_WriteReg(XPSR, 0x01000000)  returns 0x00 (0000ms, 0760ms total)
T3F20 001:427 JLINK_WriteReg(MSP, 0x20000800)  returns 0x00 (0000ms, 0760ms total)
T3F20 001:427 JLINK_WriteReg(PSP, 0x20000800)  returns 0x00 (0000ms, 0760ms total)
T3F20 001:427 JLINK_WriteReg(CFBP, 0x00000000)  returns 0x00 (0000ms, 0760ms total)
T3F20 001:427 JLINK_SetBPEx(Addr = 0x20000000, Type = 0xFFFFFFF2)  returns 0x00000005 (0000ms, 0760ms total)
T3F20 001:427 JLINK_Go() (0001ms, 0761ms total)
T3F20 001:428 JLINK_IsHalted()  returns FALSE (0001ms, 0762ms total)
T3F20 001:518 JLINK_IsHalted()  returns FALSE (0001ms, 0762ms total)
T3F20 001:555 JLINK_IsHalted()  returns FALSE (0000ms, 0761ms total)
T3F20 001:557 JLINK_IsHalted()  returns FALSE (0000ms, 0761ms total)
T3F20 001:559 JLINK_IsHalted()  returns FALSE (0000ms, 0761ms total)
T3F20 001:651 JLINK_IsHalted()  returns FALSE (0000ms, 0761ms total)
T3F20 001:744 JLINK_IsHalted()  returns FALSE (0000ms, 0761ms total)
T3F20 001:776 JLINK_IsHalted()  returns FALSE (0000ms, 0761ms total)
T3F20 001:778 JLINK_IsHalted()  returns FALSE (0000ms, 0761ms total)
T3F20 001:780 JLINK_IsHalted()  returns FALSE (0000ms, 0761ms total)
T3F20 001:782 JLINK_IsHalted()  returns FALSE (0000ms, 0761ms total)
T3F20 001:872 JLINK_IsHalted() -- CPU_ReadMem(2 bytes @ 0x20000000)  returns TRUE (0002ms, 0763ms total)
T3F20 001:874 JLINK_ReadReg(R15 (PC))  returns 0x20000000 (0000ms, 0761ms total)
T3F20 001:874 JLINK_ClrBPEx(BPHandle = 0x00000005)  returns 0x00 (0000ms, 0761ms total)
T3F20 001:874 JLINK_ReadReg(R0)  returns 0x00000000 (0000ms, 0761ms total)
T3F20 001:875 JLINK_WriteReg(R0, 0x08008000)  returns 0x00 (0000ms, 0761ms total)
T3F20 001:875 JLINK_WriteReg(R1, 0x00004000)  returns 0x00 (0000ms, 0761ms total)
T3F20 001:875 JLINK_WriteReg(R2, 0x000000FF)  returns 0x00 (0000ms, 0761ms total)
T3F20 001:875 JLINK_WriteReg(R3, 0x00000000)  returns 0x00 (0000ms, 0761ms total)
T3F20 001:875 JLINK_WriteReg(R4, 0x00000000)  returns 0x00 (0000ms, 0761ms total)
T3F20 001:875 JLINK_WriteReg(R5, 0x00000000)  returns 0x00 (0000ms, 0761ms total)
T3F20 001:875 JLINK_WriteReg(R6, 0x00000000)  returns 0x00 (0000ms, 0761ms total)
T3F20 001:875 JLINK_WriteReg(R7, 0x00000000)  returns 0x00 (0000ms, 0761ms total)
T3F20 001:875 JLINK_WriteReg(R8, 0x00000000)  returns 0x00 (0000ms, 0761ms total)
T3F20 001:875 JLINK_WriteReg(R9, 0x2000017C)  returns 0x00 (0000ms, 0761ms total)
T3F20 001:875 JLINK_WriteReg(R10, 0x00000000)  returns 0x00 (0000ms, 0761ms total)
T3F20 001:875 JLINK_WriteReg(R11, 0x00000000)  returns 0x00 (0000ms, 0761ms total)
T3F20 001:875 JLINK_WriteReg(R12, 0x00000000)  returns 0x00 (0000ms, 0761ms total)
T3F20 001:875 JLINK_WriteReg(R13 (SP), 0x20000800)  returns 0x00 (0000ms, 0761ms total)
T3F20 001:875 JLINK_WriteReg(R14, 0x20000001)  returns 0x00 (0000ms, 0761ms total)
T3F20 001:875 JLINK_WriteReg(R15 (PC), 0x20000020)  returns 0x00 (0000ms, 0761ms total)
T3F20 001:875 JLINK_WriteReg(XPSR, 0x01000000)  returns 0x00 (0000ms, 0761ms total)
T3F20 001:875 JLINK_WriteReg(MSP, 0x20000800)  returns 0x00 (0000ms, 0761ms total)
T3F20 001:875 JLINK_WriteReg(PSP, 0x20000800)  returns 0x00 (0000ms, 0761ms total)
T3F20 001:875 JLINK_WriteReg(CFBP, 0x00000000)  returns 0x00 (0000ms, 0761ms total)
T3F20 001:875 JLINK_SetBPEx(Addr = 0x20000000, Type = 0xFFFFFFF2)  returns 0x00000006 (0000ms, 0761ms total)
T3F20 001:875 JLINK_Go() (0002ms, 0763ms total)
T3F20 001:877 JLINK_IsHalted() -- CPU_ReadMem(2 bytes @ 0x20000000)  returns TRUE (0002ms, 0765ms total)
T3F20 001:879 JLINK_ReadReg(R15 (PC))  returns 0x20000000 (0000ms, 0763ms total)
T3F20 001:879 JLINK_ClrBPEx(BPHandle = 0x00000006)  returns 0x00 (0000ms, 0763ms total)
T3F20 001:879 JLINK_ReadReg(R0)  returns 0x00000001 (0000ms, 0763ms total)
T3F20 001:879 JLINK_WriteReg(R0, 0x08008000)  returns 0x00 (0000ms, 0763ms total)
T3F20 001:879 JLINK_WriteReg(R1, 0x00004000)  returns 0x00 (0000ms, 0763ms total)
T3F20 001:879 JLINK_WriteReg(R2, 0x000000FF)  returns 0x00 (0000ms, 0763ms total)
T3F20 001:879 JLINK_WriteReg(R3, 0x00000000)  returns 0x00 (0000ms, 0763ms total)
T3F20 001:879 JLINK_WriteReg(R4, 0x00000000)  returns 0x00 (0000ms, 0763ms total)
T3F20 001:879 JLINK_WriteReg(R5, 0x00000000)  returns 0x00 (0000ms, 0763ms total)
T3F20 001:879 JLINK_WriteReg(R6, 0x00000000)  returns 0x00 (0000ms, 0763ms total)
T3F20 001:879 JLINK_WriteReg(R7, 0x00000000)  returns 0x00 (0000ms, 0763ms total)
T3F20 001:879 JLINK_WriteReg(R8, 0x00000000)  returns 0x00 (0000ms, 0763ms total)
T3F20 001:879 JLINK_WriteReg(R9, 0x2000017C)  returns 0x00 (0000ms, 0763ms total)
T3F20 001:879 JLINK_WriteReg(R10, 0x00000000)  returns 0x00 (0000ms, 0763ms total)
T3F20 001:879 JLINK_WriteReg(R11, 0x00000000)  returns 0x00 (0000ms, 0763ms total)
T3F20 001:879 JLINK_WriteReg(R12, 0x00000000)  returns 0x00 (0000ms, 0763ms total)
T3F20 001:879 JLINK_WriteReg(R13 (SP), 0x20000800)  returns 0x00 (0000ms, 0763ms total)
T3F20 001:879 JLINK_WriteReg(R14, 0x20000001)  returns 0x00 (0000ms, 0763ms total)
T3F20 001:879 JLINK_WriteReg(R15 (PC), 0x200000BC)  returns 0x00 (0000ms, 0763ms total)
T3F20 001:880 JLINK_WriteReg(XPSR, 0x01000000)  returns 0x00 (0000ms, 0763ms total)
T3F20 001:880 JLINK_WriteReg(MSP, 0x20000800)  returns 0x00 (0000ms, 0763ms total)
T3F20 001:880 JLINK_WriteReg(PSP, 0x20000800)  returns 0x00 (0000ms, 0763ms total)
T3F20 001:880 JLINK_WriteReg(CFBP, 0x00000000)  returns 0x00 (0000ms, 0763ms total)
T3F20 001:880 JLINK_SetBPEx(Addr = 0x20000000, Type = 0xFFFFFFF2)  returns 0x00000007 (0000ms, 0763ms total)
T3F20 001:880 JLINK_Go() (0001ms, 0764ms total)
T3F20 001:881 JLINK_IsHalted()  returns FALSE (0000ms, 0764ms total)
T3F20 001:970 JLINK_IsHalted()  returns FALSE (0000ms, 0764ms total)
T3F20 001:994 JLINK_IsHalted()  returns FALSE (0000ms, 0764ms total)
T3F20 001:996 JLINK_IsHalted()  returns FALSE (0000ms, 0764ms total)
T3F20 001:998 JLINK_IsHalted()  returns FALSE (0000ms, 0764ms total)
T3F20 002:000 JLINK_IsHalted()  returns FALSE (0000ms, 0764ms total)
T3F20 002:001 JLINK_IsHalted()  returns FALSE (0000ms, 0764ms total)
T3F20 002:094 JLINK_IsHalted()  returns FALSE (0000ms, 0764ms total)
T3F20 002:188 JLINK_IsHalted()  returns FALSE (0000ms, 0764ms total)
T3F20 002:218 JLINK_IsHalted()  returns FALSE (0000ms, 0764ms total)
T3F20 002:308 JLINK_IsHalted() -- CPU_ReadMem(2 bytes @ 0x20000000)  returns TRUE (0002ms, 0766ms total)
T3F20 002:310 JLINK_ReadReg(R15 (PC))  returns 0x20000000 (0000ms, 0764ms total)
T3F20 002:310 JLINK_ClrBPEx(BPHandle = 0x00000007)  returns 0x00 (0000ms, 0764ms total)
T3F20 002:310 JLINK_ReadReg(R0)  returns 0x00000000 (0000ms, 0764ms total)
T3F20 002:312 JLINK_WriteReg(R0, 0x0800C000)  returns 0x00 (0000ms, 0764ms total)
T3F20 002:312 JLINK_WriteReg(R1, 0x00004000)  returns 0x00 (0000ms, 0764ms total)
T3F20 002:312 JLINK_WriteReg(R2, 0x000000FF)  returns 0x00 (0000ms, 0764ms total)
T3F20 002:312 JLINK_WriteReg(R3, 0x00000000)  returns 0x00 (0000ms, 0764ms total)
T3F20 002:312 JLINK_WriteReg(R4, 0x00000000)  returns 0x00 (0000ms, 0764ms total)
T3F20 002:312 JLINK_WriteReg(R5, 0x00000000)  returns 0x00 (0000ms, 0764ms total)
T3F20 002:312 JLINK_WriteReg(R6, 0x00000000)  returns 0x00 (0000ms, 0764ms total)
T3F20 002:312 JLINK_WriteReg(R7, 0x00000000)  returns 0x00 (0000ms, 0764ms total)
T3F20 002:312 JLINK_WriteReg(R8, 0x00000000)  returns 0x00 (0000ms, 0764ms total)
T3F20 002:312 JLINK_WriteReg(R9, 0x2000017C)  returns 0x00 (0000ms, 0764ms total)
T3F20 002:312 JLINK_WriteReg(R10, 0x00000000)  returns 0x00 (0000ms, 0764ms total)
T3F20 002:312 JLINK_WriteReg(R11, 0x00000000)  returns 0x00 (0000ms, 0764ms total)
T3F20 002:312 JLINK_WriteReg(R12, 0x00000000)  returns 0x00 (0000ms, 0764ms total)
T3F20 002:312 JLINK_WriteReg(R13 (SP), 0x20000800)  returns 0x00 (0000ms, 0764ms total)
T3F20 002:312 JLINK_WriteReg(R14, 0x20000001)  returns 0x00 (0000ms, 0764ms total)
T3F20 002:312 JLINK_WriteReg(R15 (PC), 0x20000020)  returns 0x00 (0000ms, 0764ms total)
T3F20 002:312 JLINK_WriteReg(XPSR, 0x01000000)  returns 0x00 (0000ms, 0764ms total)
T3F20 002:312 JLINK_WriteReg(MSP, 0x20000800)  returns 0x00 (0000ms, 0764ms total)
T3F20 002:312 JLINK_WriteReg(PSP, 0x20000800)  returns 0x00 (0000ms, 0764ms total)
T3F20 002:312 JLINK_WriteReg(CFBP, 0x00000000)  returns 0x00 (0000ms, 0764ms total)
T3F20 002:312 JLINK_SetBPEx(Addr = 0x20000000, Type = 0xFFFFFFF2)  returns 0x00000008 (0000ms, 0764ms total)
T3F20 002:312 JLINK_Go() (0001ms, 0765ms total)
T3F20 002:313 JLINK_IsHalted() -- CPU_ReadMem(2 bytes @ 0x20000000)  returns TRUE (0004ms, 0769ms total)
T3F20 002:317 JLINK_ReadReg(R15 (PC))  returns 0x20000000 (0000ms, 0765ms total)
T3F20 002:317 JLINK_ClrBPEx(BPHandle = 0x00000008)  returns 0x00 (0000ms, 0765ms total)
T3F20 002:317 JLINK_ReadReg(R0)  returns 0x00000001 (0000ms, 0765ms total)
T3F20 002:317 JLINK_WriteReg(R0, 0x0800C000)  returns 0x00 (0000ms, 0765ms total)
T3F20 002:317 JLINK_WriteReg(R1, 0x00004000)  returns 0x00 (0000ms, 0765ms total)
T3F20 002:317 JLINK_WriteReg(R2, 0x000000FF)  returns 0x00 (0000ms, 0765ms total)
T3F20 002:317 JLINK_WriteReg(R3, 0x00000000)  returns 0x00 (0000ms, 0765ms total)
T3F20 002:317 JLINK_WriteReg(R4, 0x00000000)  returns 0x00 (0000ms, 0765ms total)
T3F20 002:317 JLINK_WriteReg(R5, 0x00000000)  returns 0x00 (0000ms, 0765ms total)
T3F20 002:317 JLINK_WriteReg(R6, 0x00000000)  returns 0x00 (0000ms, 0765ms total)
T3F20 002:317 JLINK_WriteReg(R7, 0x00000000)  returns 0x00 (0000ms, 0765ms total)
T3F20 002:317 JLINK_WriteReg(R8, 0x00000000)  returns 0x00 (0000ms, 0765ms total)
T3F20 002:317 JLINK_WriteReg(R9, 0x2000017C)  returns 0x00 (0000ms, 0765ms total)
T3F20 002:317 JLINK_WriteReg(R10, 0x00000000)  returns 0x00 (0000ms, 0765ms total)
T3F20 002:317 JLINK_WriteReg(R11, 0x00000000)  returns 0x00 (0000ms, 0765ms total)
T3F20 002:317 JLINK_WriteReg(R12, 0x00000000)  returns 0x00 (0000ms, 0765ms total)
T3F20 002:317 JLINK_WriteReg(R13 (SP), 0x20000800)  returns 0x00 (0000ms, 0765ms total)
T3F20 002:317 JLINK_WriteReg(R14, 0x20000001)  returns 0x00 (0000ms, 0765ms total)
T3F20 002:317 JLINK_WriteReg(R15 (PC), 0x200000BC)  returns 0x00 (0000ms, 0765ms total)
T3F20 002:317 JLINK_WriteReg(XPSR, 0x01000000)  returns 0x00 (0000ms, 0765ms total)
T3F20 002:317 JLINK_WriteReg(MSP, 0x20000800)  returns 0x00 (0000ms, 0765ms total)
T3F20 002:317 JLINK_WriteReg(PSP, 0x20000800)  returns 0x00 (0000ms, 0765ms total)
T3F20 002:317 JLINK_WriteReg(CFBP, 0x00000000)  returns 0x00 (0000ms, 0765ms total)
T3F20 002:317 JLINK_SetBPEx(Addr = 0x20000000, Type = 0xFFFFFFF2)  returns 0x00000009 (0000ms, 0765ms total)
T3F20 002:317 JLINK_Go() (0001ms, 0766ms total)
T3F20 002:318 JLINK_IsHalted()  returns FALSE (0000ms, 0766ms total)
T3F20 002:412 JLINK_IsHalted()  returns FALSE (0000ms, 0766ms total)
T3F20 002:503 JLINK_IsHalted()  returns FALSE (0000ms, 0766ms total)
T3F20 002:543 JLINK_IsHalted()  returns FALSE (0000ms, 0766ms total)
T3F20 002:635 JLINK_IsHalted()  returns FALSE (0000ms, 0766ms total)
T3F20 002:727 JLINK_IsHalted() -- CPU_ReadMem(2 bytes @ 0x20000000)  returns TRUE (0003ms, 0769ms total)
T3F20 002:730 JLINK_ReadReg(R15 (PC))  returns 0x20000000 (0000ms, 0766ms total)
T3F20 002:730 JLINK_ClrBPEx(BPHandle = 0x00000009)  returns 0x00 (0000ms, 0766ms total)
T3F20 002:730 JLINK_ReadReg(R0)  returns 0x00000000 (0000ms, 0766ms total)
T3F20 002:730 JLINK_WriteReg(R0, 0x00000001)  returns 0x00 (0000ms, 0766ms total)
T3F20 002:730 JLINK_WriteReg(R1, 0x00004000)  returns 0x00 (0000ms, 0766ms total)
T3F20 002:730 JLINK_WriteReg(R2, 0x000000FF)  returns 0x00 (0000ms, 0766ms total)
T3F20 002:730 JLINK_WriteReg(R3, 0x00000000)  returns 0x00 (0000ms, 0766ms total)
T3F20 002:730 JLINK_WriteReg(R4, 0x00000000)  returns 0x00 (0000ms, 0766ms total)
T3F20 002:730 JLINK_WriteReg(R5, 0x00000000)  returns 0x00 (0000ms, 0766ms total)
T3F20 002:730 JLINK_WriteReg(R6, 0x00000000)  returns 0x00 (0000ms, 0766ms total)
T3F20 002:730 JLINK_WriteReg(R7, 0x00000000)  returns 0x00 (0000ms, 0766ms total)
T3F20 002:730 JLINK_WriteReg(R8, 0x00000000)  returns 0x00 (0000ms, 0766ms total)
T3F20 002:730 JLINK_WriteReg(R9, 0x2000017C)  returns 0x00 (0000ms, 0766ms total)
T3F20 002:730 JLINK_WriteReg(R10, 0x00000000)  returns 0x00 (0000ms, 0766ms total)
T3F20 002:730 JLINK_WriteReg(R11, 0x00000000)  returns 0x00 (0000ms, 0766ms total)
T3F20 002:730 JLINK_WriteReg(R12, 0x00000000)  returns 0x00 (0000ms, 0766ms total)
T3F20 002:730 JLINK_WriteReg(R13 (SP), 0x20000800)  returns 0x00 (0000ms, 0766ms total)
T3F20 002:730 JLINK_WriteReg(R14, 0x20000001)  returns 0x00 (0000ms, 0766ms total)
T3F20 002:730 JLINK_WriteReg(R15 (PC), 0x20000082)  returns 0x00 (0000ms, 0766ms total)
T3F20 002:730 JLINK_WriteReg(XPSR, 0x01000000)  returns 0x00 (0000ms, 0766ms total)
T3F20 002:730 JLINK_WriteReg(MSP, 0x20000800)  returns 0x00 (0000ms, 0766ms total)
T3F20 002:730 JLINK_WriteReg(PSP, 0x20000800)  returns 0x00 (0000ms, 0766ms total)
T3F20 002:730 JLINK_WriteReg(CFBP, 0x00000000)  returns 0x00 (0000ms, 0766ms total)
T3F20 002:730 JLINK_SetBPEx(Addr = 0x20000000, Type = 0xFFFFFFF2)  returns 0x0000000A (0000ms, 0766ms total)
T3F20 002:730 JLINK_Go() (0002ms, 0768ms total)
T3F20 002:732 JLINK_IsHalted() -- CPU_ReadMem(2 bytes @ 0x20000000)  returns TRUE (0002ms, 0770ms total)
T3F20 002:734 JLINK_ReadReg(R15 (PC))  returns 0x20000000 (0000ms, 0768ms total)
T3F20 002:734 JLINK_ClrBPEx(BPHandle = 0x0000000A)  returns 0x00 (0000ms, 0768ms total)
T3F20 002:734 JLINK_ReadReg(R0)  returns 0x00000000 (0000ms, 0768ms total)
T3F20 002:797 JLINK_WriteMem(0x20000000, 0x0180 Bytes, ...) - Data: 00 BE 0A E0 0D 78 2D 06 68 40 08 24 40 00 00 D3 ... -- CPU_WriteMem(384 bytes @ 0x20000000)  returns 0x180 (0003ms, 0771ms total)
T3F20 002:800 JLINK_WriteReg(R0, 0x08000000)  returns 0x00 (0000ms, 0771ms total)
T3F20 002:800 JLINK_WriteReg(R1, 0x007A1200)  returns 0x00 (0000ms, 0771ms total)
T3F20 002:800 JLINK_WriteReg(R2, 0x00000002)  returns 0x00 (0000ms, 0771ms total)
T3F20 002:800 JLINK_WriteReg(R3, 0x00000000)  returns 0x00 (0000ms, 0771ms total)
T3F20 002:800 JLINK_WriteReg(R4, 0x00000000)  returns 0x00 (0000ms, 0771ms total)
T3F20 002:800 JLINK_WriteReg(R5, 0x00000000)  returns 0x00 (0000ms, 0771ms total)
T3F20 002:800 JLINK_WriteReg(R6, 0x00000000)  returns 0x00 (0000ms, 0771ms total)
T3F20 002:800 JLINK_WriteReg(R7, 0x00000000)  returns 0x00 (0000ms, 0771ms total)
T3F20 002:800 JLINK_WriteReg(R8, 0x00000000)  returns 0x00 (0000ms, 0771ms total)
T3F20 002:800 JLINK_WriteReg(R9, 0x2000017C)  returns 0x00 (0000ms, 0771ms total)
T3F20 002:800 JLINK_WriteReg(R10, 0x00000000)  returns 0x00 (0000ms, 0771ms total)
T3F20 002:800 JLINK_WriteReg(R11, 0x00000000)  returns 0x00 (0000ms, 0771ms total)
T3F20 002:800 JLINK_WriteReg(R12, 0x00000000)  returns 0x00 (0000ms, 0771ms total)
T3F20 002:800 JLINK_WriteReg(R13 (SP), 0x20000800)  returns 0x00 (0000ms, 0771ms total)
T3F20 002:800 JLINK_WriteReg(R14, 0x20000001)  returns 0x00 (0000ms, 0771ms total)
T3F20 002:800 JLINK_WriteReg(R15 (PC), 0x20000054)  returns 0x00 (0000ms, 0771ms total)
T3F20 002:800 JLINK_WriteReg(XPSR, 0x01000000)  returns 0x00 (0000ms, 0771ms total)
T3F20 002:800 JLINK_WriteReg(MSP, 0x20000800)  returns 0x00 (0000ms, 0771ms total)
T3F20 002:800 JLINK_WriteReg(PSP, 0x20000800)  returns 0x00 (0000ms, 0771ms total)
T3F20 002:800 JLINK_WriteReg(CFBP, 0x00000000)  returns 0x00 (0000ms, 0771ms total)
T3F20 002:800 JLINK_SetBPEx(Addr = 0x20000000, Type = 0xFFFFFFF2) -- CPU_ReadMem(2 bytes @ 0x20000000)  returns 0x0000000B (0000ms, 0771ms total)
T3F20 002:800 JLINK_Go() -- CPU_WriteMem(2 bytes @ 0x20000000) (0002ms, 0773ms total)
T3F20 002:802 JLINK_IsHalted() -- CPU_ReadMem(2 bytes @ 0x20000000)  returns TRUE (0002ms, 0775ms total)
T3F20 002:804 JLINK_ReadReg(R15 (PC))  returns 0x20000000 (0000ms, 0773ms total)
T3F20 002:804 JLINK_ClrBPEx(BPHandle = 0x0000000B)  returns 0x00 (0000ms, 0773ms total)
T3F20 002:804 JLINK_ReadReg(R0)  returns 0x00000000 (0000ms, 0773ms total)
T3F20 002:805 JLINK_WriteMem(0x20000180, 0x0400 Bytes, ...) - Data: B0 1B 00 20 E5 AA 00 08 BD 01 00 08 BF 01 00 08 ... -- CPU_WriteMem(1024 bytes @ 0x20000180)  returns 0x400 (0007ms, 0780ms total)
T3F20 002:812 JLINK_WriteReg(R0, 0x08000000)  returns 0x00 (0000ms, 0780ms total)
T3F20 002:812 JLINK_WriteReg(R1, 0x00000400)  returns 0x00 (0000ms, 0780ms total)
T3F20 002:812 JLINK_WriteReg(R2, 0x20000180)  returns 0x00 (0000ms, 0780ms total)
T3F20 002:812 JLINK_WriteReg(R3, 0x00000000)  returns 0x00 (0000ms, 0780ms total)
T3F20 002:812 JLINK_WriteReg(R4, 0x00000000)  returns 0x00 (0000ms, 0780ms total)
T3F20 002:812 JLINK_WriteReg(R5, 0x00000000)  returns 0x00 (0000ms, 0780ms total)
T3F20 002:812 JLINK_WriteReg(R6, 0x00000000)  returns 0x00 (0000ms, 0780ms total)
T3F20 002:812 JLINK_WriteReg(R7, 0x00000000)  returns 0x00 (0000ms, 0780ms total)
T3F20 002:812 JLINK_WriteReg(R8, 0x00000000)  returns 0x00 (0000ms, 0780ms total)
T3F20 002:812 JLINK_WriteReg(R9, 0x2000017C)  returns 0x00 (0000ms, 0780ms total)
T3F20 002:812 JLINK_WriteReg(R10, 0x00000000)  returns 0x00 (0000ms, 0780ms total)
T3F20 002:812 JLINK_WriteReg(R11, 0x00000000)  returns 0x00 (0000ms, 0780ms total)
T3F20 002:812 JLINK_WriteReg(R12, 0x00000000)  returns 0x00 (0000ms, 0780ms total)
T3F20 002:812 JLINK_WriteReg(R13 (SP), 0x20000800)  returns 0x00 (0000ms, 0780ms total)
T3F20 002:812 JLINK_WriteReg(R14, 0x20000001)  returns 0x00 (0000ms, 0780ms total)
T3F20 002:812 JLINK_WriteReg(R15 (PC), 0x20000108)  returns 0x00 (0000ms, 0780ms total)
T3F20 002:812 JLINK_WriteReg(XPSR, 0x01000000)  returns 0x00 (0000ms, 0780ms total)
T3F20 002:812 JLINK_WriteReg(MSP, 0x20000800)  returns 0x00 (0000ms, 0780ms total)
T3F20 002:812 JLINK_WriteReg(PSP, 0x20000800)  returns 0x00 (0000ms, 0780ms total)
T3F20 002:812 JLINK_WriteReg(CFBP, 0x00000000)  returns 0x00 (0000ms, 0780ms total)
T3F20 002:812 JLINK_SetBPEx(Addr = 0x20000000, Type = 0xFFFFFFF2)  returns 0x0000000C (0000ms, 0780ms total)
T3F20 002:812 JLINK_Go() (0002ms, 0782ms total)
T3F20 002:814 JLINK_IsHalted()  returns FALSE (0000ms, 0782ms total)
T3F20 002:913 JLINK_IsHalted() -- CPU_ReadMem(2 bytes @ 0x20000000)  returns TRUE (0002ms, 0784ms total)
T3F20 002:915 JLINK_ReadReg(R15 (PC))  returns 0x20000000 (0000ms, 0782ms total)
T3F20 002:915 JLINK_ClrBPEx(BPHandle = 0x0000000C)  returns 0x00 (0000ms, 0782ms total)
T3F20 002:915 JLINK_ReadReg(R0)  returns 0x00000000 (0000ms, 0782ms total)
T3F20 002:916 JLINK_WriteMem(0x20000180, 0x0400 Bytes, ...) - Data: 08 60 BD EC 02 8B 10 BD 10 B5 2D ED 02 8B 01 20 ... -- CPU_WriteMem(1024 bytes @ 0x20000180)  returns 0x400 (0006ms, 0788ms total)
T3F20 002:922 JLINK_WriteReg(R0, 0x08000400)  returns 0x00 (0000ms, 0788ms total)
T3F20 002:922 JLINK_WriteReg(R1, 0x00000400)  returns 0x00 (0000ms, 0788ms total)
T3F20 002:922 JLINK_WriteReg(R2, 0x20000180)  returns 0x00 (0000ms, 0788ms total)
T3F20 002:922 JLINK_WriteReg(R3, 0x00000000)  returns 0x00 (0000ms, 0788ms total)
T3F20 002:922 JLINK_WriteReg(R4, 0x00000000)  returns 0x00 (0000ms, 0788ms total)
T3F20 002:922 JLINK_WriteReg(R5, 0x00000000)  returns 0x00 (0001ms, 0789ms total)
T3F20 002:923 JLINK_WriteReg(R6, 0x00000000)  returns 0x00 (0000ms, 0789ms total)
T3F20 002:923 JLINK_WriteReg(R7, 0x00000000)  returns 0x00 (0000ms, 0789ms total)
T3F20 002:923 JLINK_WriteReg(R8, 0x00000000)  returns 0x00 (0000ms, 0789ms total)
T3F20 002:923 JLINK_WriteReg(R9, 0x2000017C)  returns 0x00 (0000ms, 0789ms total)
T3F20 002:923 JLINK_WriteReg(R10, 0x00000000)  returns 0x00 (0000ms, 0789ms total)
T3F20 002:923 JLINK_WriteReg(R11, 0x00000000)  returns 0x00 (0000ms, 0789ms total)
T3F20 002:923 JLINK_WriteReg(R12, 0x00000000)  returns 0x00 (0000ms, 0789ms total)
T3F20 002:923 JLINK_WriteReg(R13 (SP), 0x20000800)  returns 0x00 (0000ms, 0789ms total)
T3F20 002:923 JLINK_WriteReg(R14, 0x20000001)  returns 0x00 (0000ms, 0789ms total)
T3F20 002:923 JLINK_WriteReg(R15 (PC), 0x20000108)  returns 0x00 (0000ms, 0789ms total)
T3F20 002:923 JLINK_WriteReg(XPSR, 0x01000000)  returns 0x00 (0000ms, 0789ms total)
T3F20 002:923 JLINK_WriteReg(MSP, 0x20000800)  returns 0x00 (0000ms, 0789ms total)
T3F20 002:923 JLINK_WriteReg(PSP, 0x20000800)  returns 0x00 (0000ms, 0789ms total)
T3F20 002:923 JLINK_WriteReg(CFBP, 0x00000000)  returns 0x00 (0000ms, 0789ms total)
T3F20 002:923 JLINK_SetBPEx(Addr = 0x20000000, Type = 0xFFFFFFF2)  returns 0x0000000D (0000ms, 0789ms total)
T3F20 002:923 JLINK_Go() (0001ms, 0790ms total)
T3F20 002:924 JLINK_IsHalted()  returns FALSE (0000ms, 0790ms total)
T3F20 003:019 JLINK_IsHalted() -- CPU_ReadMem(2 bytes @ 0x20000000)  returns TRUE (0002ms, 0792ms total)
T3F20 003:022 JLINK_ReadReg(R15 (PC))  returns 0x20000000 (0000ms, 0790ms total)
T3F20 003:022 JLINK_ClrBPEx(BPHandle = 0x0000000D)  returns 0x00 (0000ms, 0790ms total)
T3F20 003:022 JLINK_ReadReg(R0)  returns 0x00000000 (0000ms, 0790ms total)
T3F20 003:022 JLINK_WriteMem(0x20000180, 0x0400 Bytes, ...) - Data: 20 46 FF F7 97 FF FF F7 6C FF 28 46 FF F7 92 FF ... -- CPU_WriteMem(1024 bytes @ 0x20000180)  returns 0x400 (0007ms, 0797ms total)
T3F20 003:029 JLINK_WriteReg(R0, 0x08000800)  returns 0x00 (0000ms, 0797ms total)
T3F20 003:029 JLINK_WriteReg(R1, 0x00000400)  returns 0x00 (0000ms, 0797ms total)
T3F20 003:029 JLINK_WriteReg(R2, 0x20000180)  returns 0x00 (0000ms, 0797ms total)
T3F20 003:029 JLINK_WriteReg(R3, 0x00000000)  returns 0x00 (0000ms, 0797ms total)
T3F20 003:029 JLINK_WriteReg(R4, 0x00000000)  returns 0x00 (0000ms, 0797ms total)
T3F20 003:029 JLINK_WriteReg(R5, 0x00000000)  returns 0x00 (0000ms, 0797ms total)
T3F20 003:029 JLINK_WriteReg(R6, 0x00000000)  returns 0x00 (0000ms, 0797ms total)
T3F20 003:029 JLINK_WriteReg(R7, 0x00000000)  returns 0x00 (0000ms, 0797ms total)
T3F20 003:029 JLINK_WriteReg(R8, 0x00000000)  returns 0x00 (0000ms, 0797ms total)
T3F20 003:029 JLINK_WriteReg(R9, 0x2000017C)  returns 0x00 (0000ms, 0797ms total)
T3F20 003:029 JLINK_WriteReg(R10, 0x00000000)  returns 0x00 (0000ms, 0797ms total)
T3F20 003:029 JLINK_WriteReg(R11, 0x00000000)  returns 0x00 (0000ms, 0797ms total)
T3F20 003:029 JLINK_WriteReg(R12, 0x00000000)  returns 0x00 (0000ms, 0797ms total)
T3F20 003:029 JLINK_WriteReg(R13 (SP), 0x20000800)  returns 0x00 (0000ms, 0797ms total)
T3F20 003:029 JLINK_WriteReg(R14, 0x20000001)  returns 0x00 (0000ms, 0797ms total)
T3F20 003:029 JLINK_WriteReg(R15 (PC), 0x20000108)  returns 0x00 (0000ms, 0797ms total)
T3F20 003:029 JLINK_WriteReg(XPSR, 0x01000000)  returns 0x00 (0000ms, 0797ms total)
T3F20 003:029 JLINK_WriteReg(MSP, 0x20000800)  returns 0x00 (0000ms, 0797ms total)
T3F20 003:029 JLINK_WriteReg(PSP, 0x20000800)  returns 0x00 (0000ms, 0797ms total)
T3F20 003:029 JLINK_WriteReg(CFBP, 0x00000000)  returns 0x00 (0000ms, 0797ms total)
T3F20 003:029 JLINK_SetBPEx(Addr = 0x20000000, Type = 0xFFFFFFF2)  returns 0x0000000E (0000ms, 0797ms total)
T3F20 003:029 JLINK_Go() (0001ms, 0798ms total)
T3F20 003:030 JLINK_IsHalted()  returns FALSE (0000ms, 0798ms total)
T3F20 003:123 JLINK_IsHalted() -- CPU_ReadMem(2 bytes @ 0x20000000)  returns TRUE (0002ms, 0800ms total)
T3F20 003:125 JLINK_ReadReg(R15 (PC))  returns 0x20000000 (0000ms, 0798ms total)
T3F20 003:125 JLINK_ClrBPEx(BPHandle = 0x0000000E)  returns 0x00 (0000ms, 0798ms total)
T3F20 003:125 JLINK_ReadReg(R0)  returns 0x00000000 (0000ms, 0798ms total)
T3F20 003:126 JLINK_WriteMem(0x20000180, 0x0400 Bytes, ...) - Data: 1D 0A 68 48 B0 F9 60 00 00 EE 10 0A B8 EE C0 0A ... -- CPU_WriteMem(1024 bytes @ 0x20000180)  returns 0x400 (0006ms, 0804ms total)
T3F20 003:132 JLINK_WriteReg(R0, 0x08000C00)  returns 0x00 (0000ms, 0804ms total)
T3F20 003:132 JLINK_WriteReg(R1, 0x00000400)  returns 0x00 (0000ms, 0804ms total)
T3F20 003:132 JLINK_WriteReg(R2, 0x20000180)  returns 0x00 (0000ms, 0804ms total)
T3F20 003:132 JLINK_WriteReg(R3, 0x00000000)  returns 0x00 (0000ms, 0804ms total)
T3F20 003:132 JLINK_WriteReg(R4, 0x00000000)  returns 0x00 (0000ms, 0804ms total)
T3F20 003:132 JLINK_WriteReg(R5, 0x00000000)  returns 0x00 (0000ms, 0804ms total)
T3F20 003:132 JLINK_WriteReg(R6, 0x00000000)  returns 0x00 (0000ms, 0804ms total)
T3F20 003:132 JLINK_WriteReg(R7, 0x00000000)  returns 0x00 (0000ms, 0804ms total)
T3F20 003:132 JLINK_WriteReg(R8, 0x00000000)  returns 0x00 (0000ms, 0804ms total)
T3F20 003:132 JLINK_WriteReg(R9, 0x2000017C)  returns 0x00 (0000ms, 0804ms total)
T3F20 003:132 JLINK_WriteReg(R10, 0x00000000)  returns 0x00 (0000ms, 0804ms total)
T3F20 003:132 JLINK_WriteReg(R11, 0x00000000)  returns 0x00 (0000ms, 0804ms total)
T3F20 003:132 JLINK_WriteReg(R12, 0x00000000)  returns 0x00 (0000ms, 0804ms total)
T3F20 003:132 JLINK_WriteReg(R13 (SP), 0x20000800)  returns 0x00 (0000ms, 0804ms total)
T3F20 003:132 JLINK_WriteReg(R14, 0x20000001)  returns 0x00 (0000ms, 0804ms total)
T3F20 003:132 JLINK_WriteReg(R15 (PC), 0x20000108)  returns 0x00 (0000ms, 0804ms total)
T3F20 003:132 JLINK_WriteReg(XPSR, 0x01000000)  returns 0x00 (0000ms, 0804ms total)
T3F20 003:132 JLINK_WriteReg(MSP, 0x20000800)  returns 0x00 (0000ms, 0804ms total)
T3F20 003:132 JLINK_WriteReg(PSP, 0x20000800)  returns 0x00 (0000ms, 0804ms total)
T3F20 003:132 JLINK_WriteReg(CFBP, 0x00000000)  returns 0x00 (0000ms, 0804ms total)
T3F20 003:132 JLINK_SetBPEx(Addr = 0x20000000, Type = 0xFFFFFFF2)  returns 0x0000000F (0000ms, 0804ms total)
T3F20 003:132 JLINK_Go() (0002ms, 0806ms total)
T3F20 003:134 JLINK_IsHalted()  returns FALSE (0000ms, 0806ms total)
T3F20 003:227 JLINK_IsHalted() -- CPU_ReadMem(2 bytes @ 0x20000000)  returns TRUE (0003ms, 0809ms total)
T3F20 003:230 JLINK_ReadReg(R15 (PC))  returns 0x20000000 (0000ms, 0806ms total)
T3F20 003:230 JLINK_ClrBPEx(BPHandle = 0x0000000F)  returns 0x00 (0000ms, 0806ms total)
T3F20 003:230 JLINK_ReadReg(R0)  returns 0x00000000 (0000ms, 0806ms total)
T3F20 003:230 JLINK_WriteMem(0x20000180, 0x0400 Bytes, ...) - Data: E2 00 7A 3D 34 FA 8E 3C 10 B5 00 22 02 21 3C 20 ... -- CPU_WriteMem(1024 bytes @ 0x20000180)  returns 0x400 (0006ms, 0812ms total)
T3F20 003:236 JLINK_WriteReg(R0, 0x08001000)  returns 0x00 (0000ms, 0812ms total)
T3F20 003:236 JLINK_WriteReg(R1, 0x00000400)  returns 0x00 (0000ms, 0812ms total)
T3F20 003:236 JLINK_WriteReg(R2, 0x20000180)  returns 0x00 (0000ms, 0812ms total)
T3F20 003:236 JLINK_WriteReg(R3, 0x00000000)  returns 0x00 (0000ms, 0812ms total)
T3F20 003:236 JLINK_WriteReg(R4, 0x00000000)  returns 0x00 (0000ms, 0812ms total)
T3F20 003:236 JLINK_WriteReg(R5, 0x00000000)  returns 0x00 (0000ms, 0812ms total)
T3F20 003:237 JLINK_WriteReg(R6, 0x00000000)  returns 0x00 (0000ms, 0812ms total)
T3F20 003:237 JLINK_WriteReg(R7, 0x00000000)  returns 0x00 (0000ms, 0812ms total)
T3F20 003:237 JLINK_WriteReg(R8, 0x00000000)  returns 0x00 (0000ms, 0812ms total)
T3F20 003:237 JLINK_WriteReg(R9, 0x2000017C)  returns 0x00 (0000ms, 0812ms total)
T3F20 003:237 JLINK_WriteReg(R10, 0x00000000)  returns 0x00 (0000ms, 0812ms total)
T3F20 003:237 JLINK_WriteReg(R11, 0x00000000)  returns 0x00 (0000ms, 0812ms total)
T3F20 003:237 JLINK_WriteReg(R12, 0x00000000)  returns 0x00 (0000ms, 0812ms total)
T3F20 003:237 JLINK_WriteReg(R13 (SP), 0x20000800)  returns 0x00 (0000ms, 0812ms total)
T3F20 003:237 JLINK_WriteReg(R14, 0x20000001)  returns 0x00 (0000ms, 0812ms total)
T3F20 003:237 JLINK_WriteReg(R15 (PC), 0x20000108)  returns 0x00 (0000ms, 0812ms total)
T3F20 003:237 JLINK_WriteReg(XPSR, 0x01000000)  returns 0x00 (0000ms, 0812ms total)
T3F20 003:237 JLINK_WriteReg(MSP, 0x20000800)  returns 0x00 (0000ms, 0812ms total)
T3F20 003:237 JLINK_WriteReg(PSP, 0x20000800)  returns 0x00 (0000ms, 0812ms total)
T3F20 003:237 JLINK_WriteReg(CFBP, 0x00000000)  returns 0x00 (0000ms, 0812ms total)
T3F20 003:237 JLINK_SetBPEx(Addr = 0x20000000, Type = 0xFFFFFFF2)  returns 0x00000010 (0000ms, 0812ms total)
T3F20 003:237 JLINK_Go() (0001ms, 0813ms total)
T3F20 003:238 JLINK_IsHalted()  returns FALSE (0000ms, 0813ms total)
T3F20 003:334 JLINK_IsHalted() -- CPU_ReadMem(2 bytes @ 0x20000000)  returns TRUE (0003ms, 0816ms total)
T3F20 003:337 JLINK_ReadReg(R15 (PC))  returns 0x20000000 (0000ms, 0813ms total)
T3F20 003:337 JLINK_ClrBPEx(BPHandle = 0x00000010)  returns 0x00 (0000ms, 0813ms total)
T3F20 003:337 JLINK_ReadReg(R0)  returns 0x00000000 (0000ms, 0813ms total)
T3F20 003:337 JLINK_WriteMem(0x20000180, 0x0400 Bytes, ...) - Data: 07 49 B1 F9 26 10 08 44 00 EE 10 0A B8 EE C0 0A ... -- CPU_WriteMem(1024 bytes @ 0x20000180)  returns 0x400 (0006ms, 0819ms total)
T3F20 003:343 JLINK_WriteReg(R0, 0x08001400)  returns 0x00 (0000ms, 0819ms total)
T3F20 003:343 JLINK_WriteReg(R1, 0x00000400)  returns 0x00 (0000ms, 0819ms total)
T3F20 003:343 JLINK_WriteReg(R2, 0x20000180)  returns 0x00 (0000ms, 0819ms total)
T3F20 003:343 JLINK_WriteReg(R3, 0x00000000)  returns 0x00 (0000ms, 0819ms total)
T3F20 003:343 JLINK_WriteReg(R4, 0x00000000)  returns 0x00 (0000ms, 0819ms total)
T3F20 003:343 JLINK_WriteReg(R5, 0x00000000)  returns 0x00 (0000ms, 0819ms total)
T3F20 003:343 JLINK_WriteReg(R6, 0x00000000)  returns 0x00 (0000ms, 0819ms total)
T3F20 003:343 JLINK_WriteReg(R7, 0x00000000)  returns 0x00 (0000ms, 0819ms total)
T3F20 003:343 JLINK_WriteReg(R8, 0x00000000)  returns 0x00 (0000ms, 0819ms total)
T3F20 003:343 JLINK_WriteReg(R9, 0x2000017C)  returns 0x00 (0000ms, 0819ms total)
T3F20 003:343 JLINK_WriteReg(R10, 0x00000000)  returns 0x00 (0000ms, 0819ms total)
T3F20 003:343 JLINK_WriteReg(R11, 0x00000000)  returns 0x00 (0000ms, 0819ms total)
T3F20 003:343 JLINK_WriteReg(R12, 0x00000000)  returns 0x00 (0000ms, 0819ms total)
